
TB34C 273:483 SEGGER J-Link V4.62 Log File (0041ms, 0454ms total)
TB34C 273:483 DLL Compiled: Jan 25 2013 15:19:47 (0041ms, 0454ms total)
TB34C 273:483 Logging started @ 2020-08-17 20:34 (0041ms, 0454ms total)
TB34C 273:524 JLINK_SetWarnOutHandler(...) (0001ms, 0455ms total)
TB34C 273:525 JLINK_OpenEx(...)
Firmware: J-Link ARM-OB STM32 compiled Aug 22 2012 19:52:04
Hardware: V7.00
S/N: 20090928
Feature(s): RDI,FlashDL,FlashBP,JFlash,GDBFull  returns O.K. (0021ms, 0476ms total)
TB34C 273:546 JLINK_GetEmuCaps()  returns 0x88EA5833 (0000ms, 0476ms total)
TB34C 273:547 JLINK_TIF_GetAvailable(...) (0000ms, 0476ms total)
TB34C 273:547 JLINK_SetErrorOutHandler(...) (0000ms, 0476ms total)
TB34C 273:547 JLINK_ExecCommand("ProjectFile = "D:\AProject\He_project\software\motorDriver\motorDriver\MDK-ARM\JLinkSettings.ini"", ...)
                JLINK_AddMirrorAreaEx(Addr = 0x00000000, Size = 0x00000000) (0000ms, 0000ms total)
              Device "UNSPECIFIED" selected (0 KB flash, 0 KB RAM).  returns 0x00 (0018ms, 0494ms total)
TB34C 273:566 JLINK_ExecCommand("Device = STM32F405RGTx", ...)
                JLINK_AddMirrorAreaEx(Addr = 0x00000000, Size = 0x00000000) (0000ms, 0000ms total)
              Device "UNSPECIFIED" selected (0 KB flash, 0 KB RAM).  returns 0x00 (0001ms, 0495ms total)
TB34C 273:567 JLINK_ExecCommand("DisableConnectionTimeout", ...)  returns 0x00 (0000ms, 0495ms total)
TB34C 273:567 JLINK_GetHardwareVersion()  returns 0x11170 (0000ms, 0495ms total)
TB34C 273:568 JLINK_GetDLLVersion()  returns 46200 (0000ms, 0495ms total)
TB34C 273:568 JLINK_GetFirmwareString(...) (0000ms, 0495ms total)
TB34C 273:570 JLINK_GetDLLVersion()  returns 46200 (0000ms, 0495ms total)
TB34C 273:570 JLINK_GetCompileDateTime() (0000ms, 0495ms total)
TB34C 273:571 JLINK_GetFirmwareString(...) (0000ms, 0495ms total)
TB34C 273:581 JLINK_GetHardwareVersion()  returns 0x11170 (0000ms, 0495ms total)
TB34C 273:589 JLINK_TIF_Select(JLINKARM_TIF_SWD)  returns 0x00 (0002ms, 0497ms total)
TB34C 273:591 JLINK_SetSpeed(5000) (0000ms, 0497ms total)
TB34C 273:591 JLINK_GetId() >0x108 TIF>Found SWD-DP with ID 0x2BA01477 >0x0D TIF> >0x21 TIF> >0x0D TIF> >0x28 TIF> >0x0D TIF> >0x28 TIF> >0x0D TIF> >0x21 TIF> >0x0D TIF> >0x21 TIF> >0x0D TIF> >0x28 TIF> >0x0D TIF> >0x21 TIF> >0x0D TIF> >0x21 TIF> >0x0D TIF> >0x21 TIF> >0x0D TIF> >0x21 TIF> >0x0D TIF> >0x21 TIF> >0x0D TIF> >0x28 TIF> >0x0D TIF> >0x28 TIF> >0x0D TIF> >0x21 TIF> >0x0D TIF> >0x21 TIF> >0x0D TIF> >0x28 TIF> >0x0D TIF> >0x21 TIF> >0x0D TIF> >0x21 TIF> >0x0D TIF> >0x28 TIF> >0x0D TIF>
 >0x28 TIF> >0x0D TIF> >0x28 TIF> >0x0D TIF> >0x21 TIF> >0x0D TIF> >0x21 TIF> >0x0D TIF> >0x28 TIF> >0x0D TIF> >0x28 TIF> >0x0D TIF> >0x28 TIF> >0x0D TIF> >0x28 TIF> >0x0D TIF> >0x28 TIF> >0x0D TIF> >0x21 TIF> >0x0D TIF> >0x21 TIF> >0x0D TIF> >0x21 TIF>TPIU fitted.ETM fitted. >0x0D TIF> >0x28 TIF> >0x0D TIF> >0x21 TIF> >0x0D TIF> >0x21 TIF> >0x0D TIF> >0x28 TIF> >0x0D TIF> >0x21 TIF> >0x0D TIF> >0x21 TIF>FPUnit: 6 code (BP) slots and 2 literal slots >0x0D TIF> >0x28 TIF> >0x0D TIF> >0x21 TIF> >0x0D TIF>
 >0x21 TIF> >0x0D TIF> >0x28 TIF> >0x0D TIF> >0x28 TIF> >0x0D TIF> >0x28 TIF> >0x0D TIF> >0x21 TIF> >0x0D TIF> >0x21 TIF> >0x0D TIF> >0x28 TIF> >0x0D TIF> >0x21 TIF> >0x0D TIF> >0x21 TIF> >0x0D TIF> >0x28 TIF> >0x0D TIF> >0x21 TIF> >0x0D TIF> >0x21 TIF>Found Cortex-M4 r0p1, Little endian. >0x0D TIF> >0x21 TIF>  returns 0x2BA01477 (0060ms, 0557ms total)
TB34C 273:651 JLINK_GetDLLVersion()  returns 46200 (0000ms, 0557ms total)
TB34C 273:651 JLINK_CORE_GetFound()  returns 0xE0000FF (0000ms, 0557ms total)
TB34C 273:652 JLINK_GetDebugInfo(0x100) -- Value=0xE00FF003  returns 0x00 (0000ms, 0557ms total)
TB34C 273:652 JLINK_GetDebugInfo(0x101)  returns 0xFFFFFFFF (0000ms, 0557ms total)
TB34C 273:652 JLINK_ReadMemEx(0xE0041FF0, 0x0010 Bytes, ..., AccessWidth = 33554436) -- CPU is running -- CPU_ReadMem(16 bytes @ 0xE0041FF0) -- Data:  0D 00 00 00 90 00 00 00 05 00 00 00 B1 00 00 00  returns 0x10 (0001ms, 0558ms total)
TB34C 273:653 JLINK_ReadMemEx(0xE0041FD0, 0x0020 Bytes, ..., AccessWidth = 33554436) -- CPU is running -- CPU_ReadMem(32 bytes @ 0xE0041FD0) -- Data:  04 00 00 00 00 00 00 00 00 00 00 00 00 00 00 00 ...  returns 0x20 (0001ms, 0559ms total)
TB34C 273:654 JLINK_GetDebugInfo(0x102)  returns 0xFFFFFFFF (0000ms, 0559ms total)
TB34C 273:654 JLINK_GetDebugInfo(0x103)  returns 0xFFFFFFFF (0000ms, 0559ms total)
TB34C 273:654 JLINK_ReadMemEx(0xE0040FF0, 0x0010 Bytes, ..., AccessWidth = 33554436) -- CPU is running -- CPU_ReadMem(16 bytes @ 0xE0040FF0) -- Data:  0D 00 00 00 90 00 00 00 05 00 00 00 B1 00 00 00  returns 0x10 (0001ms, 0560ms total)
TB34C 273:655 JLINK_GetDebugInfo(0x104)  returns 0xFFFFFFFF (0000ms, 0560ms total)
TB34C 273:655 JLINK_GetDebugInfo(0x105)  returns 0xFFFFFFFF (0000ms, 0560ms total)
TB34C 273:655 JLINK_GetDebugInfo(0x106)  returns 0xFFFFFFFF (0000ms, 0560ms total)
TB34C 273:655 JLINK_GetDebugInfo(0x107)  returns 0xFFFFFFFF (0000ms, 0560ms total)
TB34C 273:655 JLINK_GetDebugInfo(0x10C)  returns 0xFFFFFFFF (0000ms, 0560ms total)
TB34C 273:655 JLINK_GetDebugInfo(0x01)  returns 0xFFFFFFFF (0000ms, 0560ms total)
TB34C 273:655 JLINK_GetDeviceFamily()  returns 14 (0000ms, 0560ms total)
TB34C 273:655 JLINK_ReadMemU32(0xE000ED00, 0x0001 Items, ...) -- CPU is running -- CPU_ReadMem(4 bytes @ 0xE000ED00) -- Data:  41 C2 0F 41  returns 0x01 (0001ms, 0561ms total)
TB34C 273:656 JLINK_GetDebugInfo(0x10F)  returns 0xFFFFFFFF (0000ms, 0561ms total)
TB34C 273:656 JLINK_SetResetType(JLINKARM_RESET_TYPE_NORMAL)  returns JLINKARM_RESET_TYPE_NORMAL (0000ms, 0561ms total)
TB34C 273:656 JLINK_Reset() -- CPU is running -- CPU_WriteMem(4 bytes @ 0xE000EDF0) -- CPU is running -- CPU_WriteMem(4 bytes @ 0xE000EDFC) >0x35 TIF> -- CPU is running -- CPU_WriteMem(4 bytes @ 0xE000ED0C) -- CPU is running -- CPU_ReadMem(4 bytes @ 0xE000EDF0) -- CPU is running -- CPU_ReadMem(4 bytes @ 0xE000EDF0) -- CPU is running -- CPU_WriteMem(4 bytes @ 0xE000EDF0) -- CPU is running -- CPU_WriteMem(4 bytes @ 0xE000EDFC) -- CPU is running -- CPU_ReadMem(4 bytes @ 0xE000EDF0)
 -- CPU_WriteMem(4 bytes @ 0xE0002000) (0023ms, 0584ms total)
TB34C 273:679 JLINK_Halt()  returns 0x00 (0000ms, 0584ms total)
TB34C 273:679 JLINK_ReadMemU32(0xE000EDF0, 0x0001 Items, ...) -- CPU_ReadMem(4 bytes @ 0xE000EDF0) -- Data:  03 00 03 00  returns 0x01 (0000ms, 0584ms total)
TB34C 273:680 JLINK_WriteU32(0xE000EDF0, 0xA05F0003) -- CPU_WriteMem(4 bytes @ 0xE000EDF0)  returns 0x00 (0000ms, 0584ms total)
TB34C 273:680 JLINK_WriteU32(0xE000EDFC, 0x01000000) -- CPU_WriteMem(4 bytes @ 0xE000EDFC)  returns 0x00 (0002ms, 0586ms total)
TB34C 273:683 JLINK_GetHWStatus(...)  returns 0x00 (0000ms, 0586ms total)
TB34C 273:685 JLINK_GetNumBPUnits(Type = 0xFFFFFF00)  returns 0x06 (0000ms, 0586ms total)
TB34C 273:685 JLINK_GetNumBPUnits(Type = 0xF0)  returns 0x2000 (0000ms, 0586ms total)
TB34C 273:685 JLINK_GetNumWPUnits()  returns 0x04 (0000ms, 0586ms total)
TB34C 273:687 JLINK_GetSpeed()  returns 0xFA0 (0000ms, 0586ms total)
TB34C 273:688 JLINK_ReadMemU32(0xE000E004, 0x0001 Items, ...) -- CPU_ReadMem(4 bytes @ 0xE000E004) -- Data:  02 00 00 00  returns 0x01 (0001ms, 0587ms total)
TB34C 273:689 JLINK_ReadMemU32(0xE000E004, 0x0001 Items, ...) -- CPU_ReadMem(4 bytes @ 0xE000E004) -- Data:  02 00 00 00  returns 0x01 (0001ms, 0588ms total)
TB34C 273:690 JLINK_WriteMemEx(0xE0001000, 0x001C Bytes, ..., AccessWidth = 33554436) -- Data:  01 00 00 00 00 00 00 00 00 00 00 00 00 00 00 00 ... -- CPU_WriteMem(28 bytes @ 0xE0001000)  returns 0x1C (0001ms, 0589ms total)
TB34C 273:691 JLINK_Halt()  returns 0x00 (0000ms, 0589ms total)
TB34C 273:691 JLINK_IsHalted()  returns TRUE (0000ms, 0589ms total)
TB34C 273:696 JLINK_WriteMem(0x20000000, 0x0180 Bytes, ...) -- Data:  00 BE 0A E0 0D 78 2D 06 68 40 08 24 40 00 00 D3 ... -- CPU_WriteMem(384 bytes @ 0x20000000)  returns 0x180 (0006ms, 0595ms total)
TB34C 273:702 JLINK_WriteReg(R0, 0x08000000)  returns 0x00 (0000ms, 0595ms total)
TB34C 273:702 JLINK_WriteReg(R1, 0x0A037A00)  returns 0x00 (0000ms, 0595ms total)
TB34C 273:702 JLINK_WriteReg(R2, 0x00000001)  returns 0x00 (0000ms, 0595ms total)
TB34C 273:702 JLINK_WriteReg(R3, 0x00000000)  returns 0x00 (0000ms, 0595ms total)
TB34C 273:702 JLINK_WriteReg(R4, 0x00000000)  returns 0x00 (0000ms, 0595ms total)
TB34C 273:702 JLINK_WriteReg(R5, 0x00000000)  returns 0x00 (0000ms, 0595ms total)
TB34C 273:702 JLINK_WriteReg(R6, 0x00000000)  returns 0x00 (0000ms, 0595ms total)
TB34C 273:702 JLINK_WriteReg(R7, 0x00000000)  returns 0x00 (0000ms, 0595ms total)
TB34C 273:702 JLINK_WriteReg(R8, 0x00000000)  returns 0x00 (0000ms, 0595ms total)
TB34C 273:702 JLINK_WriteReg(R9, 0x2000017C)  returns 0x00 (0000ms, 0595ms total)
TB34C 273:702 JLINK_WriteReg(R10, 0x00000000)  returns 0x00 (0000ms, 0595ms total)
TB34C 273:702 JLINK_WriteReg(R11, 0x00000000)  returns 0x00 (0000ms, 0595ms total)
TB34C 273:702 JLINK_WriteReg(R12, 0x00000000)  returns 0x00 (0000ms, 0595ms total)
TB34C 273:702 JLINK_WriteReg(R13, 0x20001000)  returns 0x00 (0000ms, 0595ms total)
TB34C 273:702 JLINK_WriteReg(R14, 0x20000001)  returns 0x00 (0000ms, 0595ms total)
TB34C 273:702 JLINK_WriteReg(R15, 0x20000054)  returns 0x00 (0000ms, 0595ms total)
TB34C 273:702 JLINK_WriteReg(XPSR, 0x01000000)  returns 0x00 (0000ms, 0595ms total)
TB34C 273:702 JLINK_WriteReg(MSP, 0x20001000)  returns 0x00 (0000ms, 0595ms total)
TB34C 273:702 JLINK_WriteReg(PSP, 0x20001000)  returns 0x00 (0000ms, 0595ms total)
TB34C 273:702 JLINK_WriteReg(CFBP, 0x00000000)  returns 0x00 (0000ms, 0595ms total)
TB34C 273:702 JLINK_SetBPEx(Addr = 0x20000000, Type = 0xFFFFFFF2) -- CPU_ReadMem(4 bytes @ 0x20000000) -- CPU_WriteMem(4 bytes @ 0x20000000) -- CPU_ReadMem(4 bytes @ 0x20000000) -- CPU_WriteMem(4 bytes @ 0x20000000) -- CPU_ReadMem(2 bytes @ 0x20000000)  returns 0x00000001 (0005ms, 0600ms total)
TB34C 273:707 JLINK_Go() -- CPU_WriteMem(2 bytes @ 0x20000000) -- CPU_WriteMem(4 bytes @ 0xE0002008) -- CPU_WriteMem(4 bytes @ 0xE000200C) -- CPU_WriteMem(4 bytes @ 0xE0002010) -- CPU_WriteMem(4 bytes @ 0xE0002014) -- CPU_WriteMem(4 bytes @ 0xE0002018) -- CPU_WriteMem(4 bytes @ 0xE000201C) (0007ms, 0607ms total)
TB34C 273:714 JLINK_IsHalted() -- CPU_ReadMem(2 bytes @ 0x20000000)  returns TRUE (0006ms, 0613ms total)
TB34C 273:720 JLINK_ReadReg(R15)  returns 0x20000000 (0000ms, 0607ms total)
TB34C 273:720 JLINK_ClrBPEx(BPHandle = 0x00000001)  returns 0x00 (0000ms, 0607ms total)
TB34C 273:720 JLINK_ReadReg(R0)  returns 0x00000000 (0000ms, 0607ms total)
TB34C 273:722 JLINK_WriteReg(R0, 0x08000000)  returns 0x00 (0000ms, 0607ms total)
TB34C 273:722 JLINK_WriteReg(R1, 0x00004000)  returns 0x00 (0000ms, 0607ms total)
TB34C 273:722 JLINK_WriteReg(R2, 0x000000FF)  returns 0x00 (0000ms, 0607ms total)
TB34C 273:722 JLINK_WriteReg(R3, 0x00000000)  returns 0x00 (0000ms, 0607ms total)
TB34C 273:722 JLINK_WriteReg(R4, 0x00000000)  returns 0x00 (0001ms, 0608ms total)
TB34C 273:723 JLINK_WriteReg(R5, 0x00000000)  returns 0x00 (0000ms, 0608ms total)
TB34C 273:723 JLINK_WriteReg(R6, 0x00000000)  returns 0x00 (0000ms, 0608ms total)
TB34C 273:723 JLINK_WriteReg(R7, 0x00000000)  returns 0x00 (0000ms, 0608ms total)
TB34C 273:723 JLINK_WriteReg(R8, 0x00000000)  returns 0x00 (0000ms, 0608ms total)
TB34C 273:723 JLINK_WriteReg(R9, 0x2000017C)  returns 0x00 (0000ms, 0608ms total)
TB34C 273:723 JLINK_WriteReg(R10, 0x00000000)  returns 0x00 (0000ms, 0608ms total)
TB34C 273:723 JLINK_WriteReg(R11, 0x00000000)  returns 0x00 (0000ms, 0608ms total)
TB34C 273:723 JLINK_WriteReg(R12, 0x00000000)  returns 0x00 (0000ms, 0608ms total)
TB34C 273:723 JLINK_WriteReg(R13, 0x20001000)  returns 0x00 (0000ms, 0608ms total)
TB34C 273:723 JLINK_WriteReg(R14, 0x20000001)  returns 0x00 (0000ms, 0608ms total)
TB34C 273:723 JLINK_WriteReg(R15, 0x20000020)  returns 0x00 (0000ms, 0608ms total)
TB34C 273:723 JLINK_WriteReg(XPSR, 0x01000000)  returns 0x00 (0000ms, 0608ms total)
TB34C 273:723 JLINK_WriteReg(MSP, 0x20001000)  returns 0x00 (0000ms, 0608ms total)
TB34C 273:723 JLINK_WriteReg(PSP, 0x20001000)  returns 0x00 (0000ms, 0608ms total)
TB34C 273:723 JLINK_WriteReg(CFBP, 0x00000000)  returns 0x00 (0000ms, 0608ms total)
TB34C 273:723 JLINK_SetBPEx(Addr = 0x20000000, Type = 0xFFFFFFF2)  returns 0x00000002 (0000ms, 0608ms total)
TB34C 273:723 JLINK_Go() (0002ms, 0610ms total)
TB34C 273:725 JLINK_IsHalted() -- CPU_ReadMem(2 bytes @ 0x20000000)  returns TRUE (0004ms, 0614ms total)
TB34C 273:729 JLINK_ReadReg(R15)  returns 0x20000000 (0000ms, 0610ms total)
TB34C 273:729 JLINK_ClrBPEx(BPHandle = 0x00000002)  returns 0x00 (0000ms, 0610ms total)
TB34C 273:729 JLINK_ReadReg(R0)  returns 0x00000001 (0000ms, 0610ms total)
TB34C 273:729 JLINK_WriteReg(R0, 0x08000000)  returns 0x00 (0000ms, 0610ms total)
TB34C 273:729 JLINK_WriteReg(R1, 0x00004000)  returns 0x00 (0000ms, 0610ms total)
TB34C 273:729 JLINK_WriteReg(R2, 0x000000FF)  returns 0x00 (0000ms, 0610ms total)
TB34C 273:729 JLINK_WriteReg(R3, 0x00000000)  returns 0x00 (0000ms, 0610ms total)
TB34C 273:729 JLINK_WriteReg(R4, 0x00000000)  returns 0x00 (0000ms, 0610ms total)
TB34C 273:729 JLINK_WriteReg(R5, 0x00000000)  returns 0x00 (0000ms, 0610ms total)
TB34C 273:729 JLINK_WriteReg(R6, 0x00000000)  returns 0x00 (0000ms, 0610ms total)
TB34C 273:729 JLINK_WriteReg(R7, 0x00000000)  returns 0x00 (0000ms, 0610ms total)
TB34C 273:729 JLINK_WriteReg(R8, 0x00000000)  returns 0x00 (0000ms, 0610ms total)
TB34C 273:729 JLINK_WriteReg(R9, 0x2000017C)  returns 0x00 (0000ms, 0610ms total)
TB34C 273:729 JLINK_WriteReg(R10, 0x00000000)  returns 0x00 (0000ms, 0610ms total)
TB34C 273:729 JLINK_WriteReg(R11, 0x00000000)  returns 0x00 (0000ms, 0610ms total)
TB34C 273:729 JLINK_WriteReg(R12, 0x00000000)  returns 0x00 (0000ms, 0610ms total)
TB34C 273:730 JLINK_WriteReg(R13, 0x20001000)  returns 0x00 (0000ms, 0611ms total)
TB34C 273:730 JLINK_WriteReg(R14, 0x20000001)  returns 0x00 (0000ms, 0611ms total)
TB34C 273:730 JLINK_WriteReg(R15, 0x200000BC)  returns 0x00 (0000ms, 0611ms total)
TB34C 273:730 JLINK_WriteReg(XPSR, 0x01000000)  returns 0x00 (0000ms, 0611ms total)
TB34C 273:730 JLINK_WriteReg(MSP, 0x20001000)  returns 0x00 (0000ms, 0611ms total)
TB34C 273:730 JLINK_WriteReg(PSP, 0x20001000)  returns 0x00 (0000ms, 0611ms total)
TB34C 273:730 JLINK_WriteReg(CFBP, 0x00000000)  returns 0x00 (0000ms, 0611ms total)
TB34C 273:730 JLINK_SetBPEx(Addr = 0x20000000, Type = 0xFFFFFFF2)  returns 0x00000003 (0000ms, 0611ms total)
TB34C 273:730 JLINK_Go() (0002ms, 0613ms total)
TB34C 273:732 JLINK_IsHalted()  returns FALSE (0001ms, 0614ms total)
TB34C 273:877 JLINK_IsHalted()  returns FALSE (0000ms, 0613ms total)
TB34C 273:969 JLINK_IsHalted()  returns FALSE (0000ms, 0613ms total)
TB34C 274:062 JLINK_IsHalted()  returns FALSE (0001ms, 0614ms total)
TB34C 274:197 JLINK_IsHalted() -- CPU_ReadMem(2 bytes @ 0x20000000)  returns TRUE (0004ms, 0617ms total)
TB34C 274:201 JLINK_ReadReg(R15)  returns 0x20000000 (0000ms, 0613ms total)
TB34C 274:201 JLINK_ClrBPEx(BPHandle = 0x00000003)  returns 0x00 (0000ms, 0613ms total)
TB34C 274:201 JLINK_ReadReg(R0)  returns 0x00000000 (0000ms, 0613ms total)
TB34C 274:202 JLINK_WriteReg(R0, 0x08004000)  returns 0x00 (0001ms, 0614ms total)
TB34C 274:203 JLINK_WriteReg(R1, 0x00004000)  returns 0x00 (0000ms, 0614ms total)
TB34C 274:203 JLINK_WriteReg(R2, 0x000000FF)  returns 0x00 (0000ms, 0614ms total)
TB34C 274:203 JLINK_WriteReg(R3, 0x00000000)  returns 0x00 (0000ms, 0614ms total)
TB34C 274:203 JLINK_WriteReg(R4, 0x00000000)  returns 0x00 (0000ms, 0614ms total)
TB34C 274:203 JLINK_WriteReg(R5, 0x00000000)  returns 0x00 (0000ms, 0614ms total)
TB34C 274:203 JLINK_WriteReg(R6, 0x00000000)  returns 0x00 (0000ms, 0614ms total)
TB34C 274:203 JLINK_WriteReg(R7, 0x00000000)  returns 0x00 (0000ms, 0614ms total)
TB34C 274:203 JLINK_WriteReg(R8, 0x00000000)  returns 0x00 (0000ms, 0614ms total)
TB34C 274:203 JLINK_WriteReg(R9, 0x2000017C)  returns 0x00 (0000ms, 0614ms total)
TB34C 274:203 JLINK_WriteReg(R10, 0x00000000)  returns 0x00 (0000ms, 0614ms total)
TB34C 274:203 JLINK_WriteReg(R11, 0x00000000)  returns 0x00 (0000ms, 0614ms total)
TB34C 274:203 JLINK_WriteReg(R12, 0x00000000)  returns 0x00 (0000ms, 0614ms total)
TB34C 274:203 JLINK_WriteReg(R13, 0x20001000)  returns 0x00 (0000ms, 0614ms total)
TB34C 274:203 JLINK_WriteReg(R14, 0x20000001)  returns 0x00 (0000ms, 0614ms total)
TB34C 274:203 JLINK_WriteReg(R15, 0x20000020)  returns 0x00 (0000ms, 0614ms total)
TB34C 274:203 JLINK_WriteReg(XPSR, 0x01000000)  returns 0x00 (0000ms, 0614ms total)
TB34C 274:203 JLINK_WriteReg(MSP, 0x20001000)  returns 0x00 (0000ms, 0614ms total)
TB34C 274:203 JLINK_WriteReg(PSP, 0x20001000)  returns 0x00 (0000ms, 0614ms total)
TB34C 274:203 JLINK_WriteReg(CFBP, 0x00000000)  returns 0x00 (0000ms, 0614ms total)
TB34C 274:203 JLINK_SetBPEx(Addr = 0x20000000, Type = 0xFFFFFFF2)  returns 0x00000004 (0000ms, 0614ms total)
TB34C 274:203 JLINK_Go() (0002ms, 0616ms total)
TB34C 274:205 JLINK_IsHalted() -- CPU_ReadMem(2 bytes @ 0x20000000)  returns TRUE (0005ms, 0621ms total)
TB34C 274:210 JLINK_ReadReg(R15)  returns 0x20000000 (0000ms, 0616ms total)
TB34C 274:210 JLINK_ClrBPEx(BPHandle = 0x00000004)  returns 0x00 (0000ms, 0616ms total)
TB34C 274:210 JLINK_ReadReg(R0)  returns 0x00000001 (0000ms, 0616ms total)
TB34C 274:210 JLINK_WriteReg(R0, 0x08004000)  returns 0x00 (0000ms, 0616ms total)
TB34C 274:210 JLINK_WriteReg(R1, 0x00004000)  returns 0x00 (0000ms, 0616ms total)
TB34C 274:210 JLINK_WriteReg(R2, 0x000000FF)  returns 0x00 (0000ms, 0616ms total)
TB34C 274:210 JLINK_WriteReg(R3, 0x00000000)  returns 0x00 (0000ms, 0616ms total)
TB34C 274:210 JLINK_WriteReg(R4, 0x00000000)  returns 0x00 (0000ms, 0616ms total)
TB34C 274:210 JLINK_WriteReg(R5, 0x00000000)  returns 0x00 (0000ms, 0616ms total)
TB34C 274:210 JLINK_WriteReg(R6, 0x00000000)  returns 0x00 (0000ms, 0616ms total)
TB34C 274:210 JLINK_WriteReg(R7, 0x00000000)  returns 0x00 (0000ms, 0616ms total)
TB34C 274:210 JLINK_WriteReg(R8, 0x00000000)  returns 0x00 (0000ms, 0616ms total)
TB34C 274:210 JLINK_WriteReg(R9, 0x2000017C)  returns 0x00 (0000ms, 0616ms total)
TB34C 274:210 JLINK_WriteReg(R10, 0x00000000)  returns 0x00 (0000ms, 0616ms total)
TB34C 274:210 JLINK_WriteReg(R11, 0x00000000)  returns 0x00 (0000ms, 0616ms total)
TB34C 274:210 JLINK_WriteReg(R12, 0x00000000)  returns 0x00 (0000ms, 0616ms total)
TB34C 274:210 JLINK_WriteReg(R13, 0x20001000)  returns 0x00 (0000ms, 0616ms total)
TB34C 274:210 JLINK_WriteReg(R14, 0x20000001)  returns 0x00 (0000ms, 0616ms total)
TB34C 274:210 JLINK_WriteReg(R15, 0x200000BC)  returns 0x00 (0000ms, 0616ms total)
TB34C 274:210 JLINK_WriteReg(XPSR, 0x01000000)  returns 0x00 (0000ms, 0616ms total)
TB34C 274:210 JLINK_WriteReg(MSP, 0x20001000)  returns 0x00 (0000ms, 0616ms total)
TB34C 274:210 JLINK_WriteReg(PSP, 0x20001000)  returns 0x00 (0000ms, 0616ms total)
TB34C 274:210 JLINK_WriteReg(CFBP, 0x00000000)  returns 0x00 (0000ms, 0616ms total)
TB34C 274:210 JLINK_SetBPEx(Addr = 0x20000000, Type = 0xFFFFFFF2)  returns 0x00000005 (0000ms, 0616ms total)
TB34C 274:210 JLINK_Go() (0002ms, 0618ms total)
TB34C 274:212 JLINK_IsHalted()  returns FALSE (0001ms, 0619ms total)
TB34C 274:307 JLINK_IsHalted()  returns FALSE (0000ms, 0618ms total)
TB34C 274:387 JLINK_IsHalted()  returns FALSE (0000ms, 0618ms total)
TB34C 274:389 JLINK_IsHalted()  returns FALSE (0000ms, 0618ms total)
TB34C 274:391 JLINK_IsHalted()  returns FALSE (0000ms, 0618ms total)
TB34C 274:393 JLINK_IsHalted()  returns FALSE (0000ms, 0618ms total)
TB34C 274:395 JLINK_IsHalted()  returns FALSE (0000ms, 0618ms total)
TB34C 274:397 JLINK_IsHalted()  returns FALSE (0000ms, 0618ms total)
TB34C 274:399 JLINK_IsHalted()  returns FALSE (0000ms, 0618ms total)
TB34C 274:401 JLINK_IsHalted()  returns FALSE (0000ms, 0618ms total)
TB34C 274:403 JLINK_IsHalted()  returns FALSE (0000ms, 0618ms total)
TB34C 274:405 JLINK_IsHalted()  returns FALSE (0000ms, 0618ms total)
TB34C 274:407 JLINK_IsHalted()  returns FALSE (0000ms, 0618ms total)
TB34C 274:409 JLINK_IsHalted()  returns FALSE (0000ms, 0618ms total)
TB34C 274:411 JLINK_IsHalted()  returns FALSE (0000ms, 0618ms total)
TB34C 274:413 JLINK_IsHalted()  returns FALSE (0000ms, 0618ms total)
TB34C 274:415 JLINK_IsHalted()  returns FALSE (0000ms, 0618ms total)
TB34C 274:417 JLINK_IsHalted()  returns FALSE (0000ms, 0618ms total)
TB34C 274:419 JLINK_IsHalted()  returns FALSE (0000ms, 0618ms total)
TB34C 274:421 JLINK_IsHalted()  returns FALSE (0000ms, 0618ms total)
TB34C 274:423 JLINK_IsHalted()  returns FALSE (0000ms, 0618ms total)
TB34C 274:425 JLINK_IsHalted()  returns FALSE (0000ms, 0618ms total)
TB34C 274:427 JLINK_IsHalted()  returns FALSE (0000ms, 0618ms total)
TB34C 274:429 JLINK_IsHalted()  returns FALSE (0000ms, 0618ms total)
TB34C 274:431 JLINK_IsHalted()  returns FALSE (0000ms, 0618ms total)
TB34C 274:433 JLINK_IsHalted()  returns FALSE (0000ms, 0618ms total)
TB34C 274:435 JLINK_IsHalted()  returns FALSE (0000ms, 0618ms total)
TB34C 274:437 JLINK_IsHalted()  returns FALSE (0000ms, 0618ms total)
TB34C 274:439 JLINK_IsHalted()  returns FALSE (0000ms, 0618ms total)
TB34C 274:441 JLINK_IsHalted()  returns FALSE (0000ms, 0618ms total)
TB34C 274:443 JLINK_IsHalted()  returns FALSE (0000ms, 0618ms total)
TB34C 274:445 JLINK_IsHalted()  returns FALSE (0000ms, 0618ms total)
TB34C 274:447 JLINK_IsHalted()  returns FALSE (0000ms, 0618ms total)
TB34C 274:449 JLINK_IsHalted()  returns FALSE (0000ms, 0618ms total)
TB34C 274:451 JLINK_IsHalted()  returns FALSE (0000ms, 0618ms total)
TB34C 274:453 JLINK_IsHalted()  returns FALSE (0000ms, 0618ms total)
TB34C 274:455 JLINK_IsHalted()  returns FALSE (0000ms, 0618ms total)
TB34C 274:457 JLINK_IsHalted()  returns FALSE (0000ms, 0618ms total)
TB34C 274:459 JLINK_IsHalted()  returns FALSE (0000ms, 0618ms total)
TB34C 274:461 JLINK_IsHalted()  returns FALSE (0000ms, 0618ms total)
TB34C 274:462 JLINK_IsHalted()  returns FALSE (0000ms, 0618ms total)
TB34C 274:464 JLINK_IsHalted()  returns FALSE (0000ms, 0618ms total)
TB34C 274:466 JLINK_IsHalted()  returns FALSE (0000ms, 0618ms total)
TB34C 274:469 JLINK_IsHalted()  returns FALSE (0000ms, 0618ms total)
TB34C 274:471 JLINK_IsHalted()  returns FALSE (0000ms, 0618ms total)
TB34C 274:476 JLINK_IsHalted()  returns FALSE (0000ms, 0618ms total)
TB34C 274:478 JLINK_IsHalted()  returns FALSE (0000ms, 0618ms total)
TB34C 274:480 JLINK_IsHalted()  returns FALSE (0000ms, 0618ms total)
TB34C 274:482 JLINK_IsHalted()  returns FALSE (0000ms, 0618ms total)
TB34C 274:484 JLINK_IsHalted()  returns FALSE (0000ms, 0618ms total)
TB34C 274:486 JLINK_IsHalted()  returns FALSE (0000ms, 0618ms total)
TB34C 274:488 JLINK_IsHalted()  returns FALSE (0000ms, 0618ms total)
TB34C 274:490 JLINK_IsHalted()  returns FALSE (0000ms, 0618ms total)
TB34C 274:492 JLINK_IsHalted()  returns FALSE (0000ms, 0618ms total)
TB34C 274:494 JLINK_IsHalted()  returns FALSE (0000ms, 0618ms total)
TB34C 274:496 JLINK_IsHalted()  returns FALSE (0000ms, 0618ms total)
TB34C 274:498 JLINK_IsHalted()  returns FALSE (0000ms, 0618ms total)
TB34C 274:500 JLINK_IsHalted()  returns FALSE (0000ms, 0618ms total)
TB34C 274:502 JLINK_IsHalted()  returns FALSE (0000ms, 0618ms total)
TB34C 274:504 JLINK_IsHalted()  returns FALSE (0000ms, 0618ms total)
TB34C 274:506 JLINK_IsHalted()  returns FALSE (0000ms, 0618ms total)
TB34C 274:508 JLINK_IsHalted()  returns FALSE (0000ms, 0618ms total)
TB34C 274:510 JLINK_IsHalted()  returns FALSE (0000ms, 0618ms total)
TB34C 274:512 JLINK_IsHalted()  returns FALSE (0000ms, 0618ms total)
TB34C 274:514 JLINK_IsHalted()  returns FALSE (0000ms, 0618ms total)
TB34C 274:516 JLINK_IsHalted()  returns FALSE (0000ms, 0618ms total)
TB34C 274:518 JLINK_IsHalted()  returns FALSE (0000ms, 0618ms total)
TB34C 274:523 JLINK_IsHalted()  returns FALSE (0000ms, 0618ms total)
TB34C 274:525 JLINK_IsHalted()  returns FALSE (0000ms, 0618ms total)
TB34C 274:527 JLINK_IsHalted()  returns FALSE (0000ms, 0618ms total)
TB34C 274:529 JLINK_IsHalted()  returns FALSE (0000ms, 0618ms total)
TB34C 274:531 JLINK_IsHalted()  returns FALSE (0001ms, 0619ms total)
TB34C 274:534 JLINK_IsHalted()  returns FALSE (0000ms, 0618ms total)
TB34C 274:536 JLINK_IsHalted()  returns FALSE (0000ms, 0618ms total)
TB34C 274:538 JLINK_IsHalted()  returns FALSE (0000ms, 0618ms total)
TB34C 274:540 JLINK_IsHalted()  returns FALSE (0000ms, 0618ms total)
TB34C 274:542 JLINK_IsHalted()  returns FALSE (0000ms, 0618ms total)
TB34C 274:544 JLINK_IsHalted()  returns FALSE (0000ms, 0618ms total)
TB34C 274:546 JLINK_IsHalted()  returns FALSE (0000ms, 0618ms total)
TB34C 274:548 JLINK_IsHalted()  returns FALSE (0000ms, 0618ms total)
TB34C 274:550 JLINK_IsHalted()  returns FALSE (0000ms, 0618ms total)
TB34C 274:552 JLINK_IsHalted()  returns FALSE (0000ms, 0618ms total)
TB34C 274:554 JLINK_IsHalted()  returns FALSE (0000ms, 0618ms total)
TB34C 274:556 JLINK_IsHalted()  returns FALSE (0000ms, 0618ms total)
TB34C 274:558 JLINK_IsHalted()  returns FALSE (0000ms, 0618ms total)
TB34C 274:560 JLINK_IsHalted()  returns FALSE (0000ms, 0618ms total)
TB34C 274:562 JLINK_IsHalted()  returns FALSE (0000ms, 0618ms total)
TB34C 274:564 JLINK_IsHalted()  returns FALSE (0000ms, 0618ms total)
TB34C 274:566 JLINK_IsHalted()  returns FALSE (0000ms, 0618ms total)
TB34C 274:568 JLINK_IsHalted()  returns FALSE (0000ms, 0618ms total)
TB34C 274:570 JLINK_IsHalted()  returns FALSE (0000ms, 0618ms total)
TB34C 274:572 JLINK_IsHalted()  returns FALSE (0000ms, 0618ms total)
TB34C 274:574 JLINK_IsHalted()  returns FALSE (0000ms, 0618ms total)
TB34C 274:576 JLINK_IsHalted()  returns FALSE (0000ms, 0618ms total)
TB34C 274:578 JLINK_IsHalted()  returns FALSE (0000ms, 0618ms total)
TB34C 274:581 JLINK_IsHalted()  returns FALSE (0000ms, 0618ms total)
TB34C 274:586 JLINK_IsHalted()  returns FALSE (0000ms, 0618ms total)
TB34C 274:588 JLINK_IsHalted()  returns FALSE (0000ms, 0618ms total)
TB34C 274:591 JLINK_IsHalted()  returns FALSE (0000ms, 0618ms total)
TB34C 274:593 JLINK_IsHalted()  returns FALSE (0001ms, 0619ms total)
TB34C 274:595 JLINK_IsHalted()  returns FALSE (0001ms, 0619ms total)
TB34C 274:598 JLINK_IsHalted()  returns FALSE (0000ms, 0618ms total)
TB34C 274:600 JLINK_IsHalted()  returns FALSE (0000ms, 0618ms total)
TB34C 274:602 JLINK_IsHalted()  returns FALSE (0000ms, 0618ms total)
TB34C 274:604 JLINK_IsHalted()  returns FALSE (0001ms, 0619ms total)
TB34C 274:607 JLINK_IsHalted()  returns FALSE (0001ms, 0619ms total)
TB34C 274:610 JLINK_IsHalted()  returns FALSE (0000ms, 0618ms total)
TB34C 274:612 JLINK_IsHalted()  returns FALSE (0000ms, 0618ms total)
TB34C 274:618 JLINK_IsHalted()  returns FALSE (0000ms, 0618ms total)
TB34C 274:620 JLINK_IsHalted()  returns FALSE (0000ms, 0618ms total)
TB34C 274:622 JLINK_IsHalted()  returns FALSE (0000ms, 0618ms total)
TB34C 274:624 JLINK_IsHalted()  returns FALSE (0000ms, 0618ms total)
TB34C 274:626 JLINK_IsHalted()  returns FALSE (0000ms, 0618ms total)
TB34C 274:628 JLINK_IsHalted() -- CPU_ReadMem(2 bytes @ 0x20000000)  returns TRUE (0005ms, 0623ms total)
TB34C 274:633 JLINK_ReadReg(R15)  returns 0x20000000 (0000ms, 0618ms total)
TB34C 274:633 JLINK_ClrBPEx(BPHandle = 0x00000005)  returns 0x00 (0000ms, 0618ms total)
TB34C 274:633 JLINK_ReadReg(R0)  returns 0x00000000 (0000ms, 0618ms total)
TB34C 274:634 JLINK_WriteReg(R0, 0x00000001)  returns 0x00 (0000ms, 0618ms total)
TB34C 274:634 JLINK_WriteReg(R1, 0x00004000)  returns 0x00 (0000ms, 0618ms total)
TB34C 274:634 JLINK_WriteReg(R2, 0x000000FF)  returns 0x00 (0000ms, 0618ms total)
TB34C 274:634 JLINK_WriteReg(R3, 0x00000000)  returns 0x00 (0000ms, 0618ms total)
TB34C 274:634 JLINK_WriteReg(R4, 0x00000000)  returns 0x00 (0000ms, 0618ms total)
TB34C 274:635 JLINK_WriteReg(R5, 0x00000000)  returns 0x00 (0000ms, 0618ms total)
TB34C 274:635 JLINK_WriteReg(R6, 0x00000000)  returns 0x00 (0000ms, 0618ms total)
TB34C 274:635 JLINK_WriteReg(R7, 0x00000000)  returns 0x00 (0000ms, 0618ms total)
TB34C 274:635 JLINK_WriteReg(R8, 0x00000000)  returns 0x00 (0000ms, 0618ms total)
TB34C 274:635 JLINK_WriteReg(R9, 0x2000017C)  returns 0x00 (0000ms, 0618ms total)
TB34C 274:635 JLINK_WriteReg(R10, 0x00000000)  returns 0x00 (0000ms, 0618ms total)
TB34C 274:635 JLINK_WriteReg(R11, 0x00000000)  returns 0x00 (0000ms, 0618ms total)
TB34C 274:635 JLINK_WriteReg(R12, 0x00000000)  returns 0x00 (0000ms, 0618ms total)
TB34C 274:635 JLINK_WriteReg(R13, 0x20001000)  returns 0x00 (0000ms, 0618ms total)
TB34C 274:635 JLINK_WriteReg(R14, 0x20000001)  returns 0x00 (0000ms, 0618ms total)
TB34C 274:635 JLINK_WriteReg(R15, 0x20000082)  returns 0x00 (0000ms, 0618ms total)
TB34C 274:635 JLINK_WriteReg(XPSR, 0x01000000)  returns 0x00 (0000ms, 0618ms total)
TB34C 274:635 JLINK_WriteReg(MSP, 0x20001000)  returns 0x00 (0000ms, 0618ms total)
TB34C 274:635 JLINK_WriteReg(PSP, 0x20001000)  returns 0x00 (0000ms, 0618ms total)
TB34C 274:635 JLINK_WriteReg(CFBP, 0x00000000)  returns 0x00 (0000ms, 0618ms total)
TB34C 274:635 JLINK_SetBPEx(Addr = 0x20000000, Type = 0xFFFFFFF2)  returns 0x00000006 (0000ms, 0618ms total)
TB34C 274:635 JLINK_Go() (0003ms, 0621ms total)
TB34C 274:638 JLINK_IsHalted() -- CPU_ReadMem(2 bytes @ 0x20000000)  returns TRUE (0004ms, 0625ms total)
TB34C 274:642 JLINK_ReadReg(R15)  returns 0x20000000 (0000ms, 0621ms total)
TB34C 274:642 JLINK_ClrBPEx(BPHandle = 0x00000006)  returns 0x00 (0001ms, 0622ms total)
TB34C 274:643 JLINK_ReadReg(R0)  returns 0x00000000 (0000ms, 0622ms total)
TB34C 274:702 JLINK_WriteMem(0x20000000, 0x0180 Bytes, ...) -- Data:  00 BE 0A E0 0D 78 2D 06 68 40 08 24 40 00 00 D3 ... -- CPU_WriteMem(384 bytes @ 0x20000000)  returns 0x180 (0008ms, 0630ms total)
TB34C 274:710 JLINK_WriteReg(R0, 0x08000000)  returns 0x00 (0000ms, 0630ms total)
TB34C 274:710 JLINK_WriteReg(R1, 0x0A037A00)  returns 0x00 (0000ms, 0630ms total)
TB34C 274:710 JLINK_WriteReg(R2, 0x00000002)  returns 0x00 (0000ms, 0630ms total)
TB34C 274:710 JLINK_WriteReg(R3, 0x00000000)  returns 0x00 (0000ms, 0630ms total)
TB34C 274:710 JLINK_WriteReg(R4, 0x00000000)  returns 0x00 (0000ms, 0630ms total)
TB34C 274:710 JLINK_WriteReg(R5, 0x00000000)  returns 0x00 (0000ms, 0630ms total)
TB34C 274:710 JLINK_WriteReg(R6, 0x00000000)  returns 0x00 (0000ms, 0630ms total)
TB34C 274:710 JLINK_WriteReg(R7, 0x00000000)  returns 0x00 (0000ms, 0630ms total)
TB34C 274:710 JLINK_WriteReg(R8, 0x00000000)  returns 0x00 (0000ms, 0630ms total)
TB34C 274:710 JLINK_WriteReg(R9, 0x2000017C)  returns 0x00 (0000ms, 0630ms total)
TB34C 274:710 JLINK_WriteReg(R10, 0x00000000)  returns 0x00 (0000ms, 0630ms total)
TB34C 274:710 JLINK_WriteReg(R11, 0x00000000)  returns 0x00 (0000ms, 0630ms total)
TB34C 274:710 JLINK_WriteReg(R12, 0x00000000)  returns 0x00 (0000ms, 0630ms total)
TB34C 274:710 JLINK_WriteReg(R13, 0x20001000)  returns 0x00 (0000ms, 0630ms total)
TB34C 274:710 JLINK_WriteReg(R14, 0x20000001)  returns 0x00 (0000ms, 0630ms total)
TB34C 274:710 JLINK_WriteReg(R15, 0x20000054)  returns 0x00 (0000ms, 0630ms total)
TB34C 274:710 JLINK_WriteReg(XPSR, 0x01000000)  returns 0x00 (0000ms, 0630ms total)
TB34C 274:710 JLINK_WriteReg(MSP, 0x20001000)  returns 0x00 (0000ms, 0630ms total)
TB34C 274:710 JLINK_WriteReg(PSP, 0x20001000)  returns 0x00 (0000ms, 0630ms total)
TB34C 274:710 JLINK_WriteReg(CFBP, 0x00000000)  returns 0x00 (0000ms, 0630ms total)
TB34C 274:710 JLINK_SetBPEx(Addr = 0x20000000, Type = 0xFFFFFFF2) -- CPU_ReadMem(4 bytes @ 0x20000000) -- CPU_WriteMem(4 bytes @ 0x20000000) -- CPU_ReadMem(4 bytes @ 0x20000000) -- CPU_WriteMem(4 bytes @ 0x20000000) -- CPU_ReadMem(2 bytes @ 0x20000000)  returns 0x00000007 (0005ms, 0635ms total)
TB34C 274:715 JLINK_Go() -- CPU_WriteMem(2 bytes @ 0x20000000) (0003ms, 0638ms total)
TB34C 274:718 JLINK_IsHalted() -- CPU_ReadMem(2 bytes @ 0x20000000)  returns TRUE (0005ms, 0643ms total)
TB34C 274:723 JLINK_ReadReg(R15)  returns 0x20000000 (0000ms, 0638ms total)
TB34C 274:723 JLINK_ClrBPEx(BPHandle = 0x00000007)  returns 0x00 (0000ms, 0638ms total)
TB34C 274:723 JLINK_ReadReg(R0)  returns 0x00000000 (0000ms, 0638ms total)
TB34C 274:725 JLINK_WriteMem(0x20000180, 0x0280 Bytes, ...) -- Data:  58 54 00 20 9D 01 00 08 6D 3E 00 08 B5 38 00 08 ... -- CPU_WriteMem(640 bytes @ 0x20000180)  returns 0x280 (0008ms, 0646ms total)
TB34C 274:733 JLINK_WriteMem(0x20000400, 0x0180 Bytes, ...) -- Data:  2D E9 FE 4F 80 46 81 EA 03 00 C0 0F 0C 46 00 90 ... -- CPU_WriteMem(384 bytes @ 0x20000400)  returns 0x180 (0007ms, 0653ms total)
TB34C 274:740 JLINK_WriteReg(R0, 0x08000000)  returns 0x00 (0000ms, 0653ms total)
TB34C 274:740 JLINK_WriteReg(R1, 0x00000400)  returns 0x00 (0000ms, 0653ms total)
TB34C 274:740 JLINK_WriteReg(R2, 0x20000180)  returns 0x00 (0000ms, 0653ms total)
TB34C 274:740 JLINK_WriteReg(R3, 0x00000000)  returns 0x00 (0000ms, 0653ms total)
TB34C 274:740 JLINK_WriteReg(R4, 0x00000000)  returns 0x00 (0000ms, 0653ms total)
TB34C 274:740 JLINK_WriteReg(R5, 0x00000000)  returns 0x00 (0000ms, 0653ms total)
TB34C 274:740 JLINK_WriteReg(R6, 0x00000000)  returns 0x00 (0000ms, 0653ms total)
TB34C 274:740 JLINK_WriteReg(R7, 0x00000000)  returns 0x00 (0000ms, 0653ms total)
TB34C 274:740 JLINK_WriteReg(R8, 0x00000000)  returns 0x00 (0000ms, 0653ms total)
TB34C 274:740 JLINK_WriteReg(R9, 0x2000017C)  returns 0x00 (0000ms, 0653ms total)
TB34C 274:740 JLINK_WriteReg(R10, 0x00000000)  returns 0x00 (0000ms, 0653ms total)
TB34C 274:740 JLINK_WriteReg(R11, 0x00000000)  returns 0x00 (0000ms, 0653ms total)
TB34C 274:740 JLINK_WriteReg(R12, 0x00000000)  returns 0x00 (0000ms, 0653ms total)
TB34C 274:740 JLINK_WriteReg(R13, 0x20001000)  returns 0x00 (0000ms, 0653ms total)
TB34C 274:740 JLINK_WriteReg(R14, 0x20000001)  returns 0x00 (0000ms, 0653ms total)
TB34C 274:740 JLINK_WriteReg(R15, 0x20000108)  returns 0x00 (0000ms, 0653ms total)
TB34C 274:740 JLINK_WriteReg(XPSR, 0x01000000)  returns 0x00 (0000ms, 0653ms total)
TB34C 274:740 JLINK_WriteReg(MSP, 0x20001000)  returns 0x00 (0000ms, 0653ms total)
TB34C 274:740 JLINK_WriteReg(PSP, 0x20001000)  returns 0x00 (0000ms, 0653ms total)
TB34C 274:740 JLINK_WriteReg(CFBP, 0x00000000)  returns 0x00 (0000ms, 0653ms total)
TB34C 274:740 JLINK_SetBPEx(Addr = 0x20000000, Type = 0xFFFFFFF2)  returns 0x00000008 (0000ms, 0653ms total)
TB34C 274:740 JLINK_Go() (0002ms, 0655ms total)
TB34C 274:742 JLINK_IsHalted()  returns FALSE (0001ms, 0656ms total)
TB34C 274:747 JLINK_IsHalted() -- CPU_ReadMem(2 bytes @ 0x20000000)  returns TRUE (0004ms, 0659ms total)
TB34C 274:751 JLINK_ReadReg(R15)  returns 0x20000000 (0000ms, 0655ms total)
TB34C 274:751 JLINK_ClrBPEx(BPHandle = 0x00000008)  returns 0x00 (0000ms, 0655ms total)
TB34C 274:751 JLINK_ReadReg(R0)  returns 0x00000000 (0000ms, 0655ms total)
TB34C 274:752 JLINK_WriteMem(0x20000180, 0x0280 Bytes, ...) -- Data:  F3 34 01 94 A0 FB 02 54 C1 F3 13 01 41 F4 80 11 ... -- CPU_WriteMem(640 bytes @ 0x20000180)  returns 0x280 (0008ms, 0663ms total)
TB34C 274:760 JLINK_WriteMem(0x20000400, 0x0180 Bytes, ...) -- Data:  00 45 00 24 C1 F3 13 01 40 F2 FF 33 41 F4 80 11 ... -- CPU_WriteMem(384 bytes @ 0x20000400)  returns 0x180 (0006ms, 0669ms total)
TB34C 274:766 JLINK_WriteReg(R0, 0x08000400)  returns 0x00 (0000ms, 0669ms total)
TB34C 274:766 JLINK_WriteReg(R1, 0x00000400)  returns 0x00 (0000ms, 0669ms total)
TB34C 274:766 JLINK_WriteReg(R2, 0x20000180)  returns 0x00 (0000ms, 0669ms total)
TB34C 274:766 JLINK_WriteReg(R3, 0x00000000)  returns 0x00 (0000ms, 0669ms total)
TB34C 274:766 JLINK_WriteReg(R4, 0x00000000)  returns 0x00 (0000ms, 0669ms total)
TB34C 274:766 JLINK_WriteReg(R5, 0x00000000)  returns 0x00 (0000ms, 0669ms total)
TB34C 274:766 JLINK_WriteReg(R6, 0x00000000)  returns 0x00 (0000ms, 0669ms total)
TB34C 274:766 JLINK_WriteReg(R7, 0x00000000)  returns 0x00 (0000ms, 0669ms total)
TB34C 274:766 JLINK_WriteReg(R8, 0x00000000)  returns 0x00 (0000ms, 0669ms total)
TB34C 274:766 JLINK_WriteReg(R9, 0x2000017C)  returns 0x00 (0000ms, 0669ms total)
TB34C 274:766 JLINK_WriteReg(R10, 0x00000000)  returns 0x00 (0000ms, 0669ms total)
TB34C 274:766 JLINK_WriteReg(R11, 0x00000000)  returns 0x00 (0000ms, 0669ms total)
TB34C 274:766 JLINK_WriteReg(R12, 0x00000000)  returns 0x00 (0000ms, 0669ms total)
TB34C 274:766 JLINK_WriteReg(R13, 0x20001000)  returns 0x00 (0000ms, 0669ms total)
TB34C 274:766 JLINK_WriteReg(R14, 0x20000001)  returns 0x00 (0000ms, 0669ms total)
TB34C 274:766 JLINK_WriteReg(R15, 0x20000108)  returns 0x00 (0000ms, 0669ms total)
TB34C 274:766 JLINK_WriteReg(XPSR, 0x01000000)  returns 0x00 (0000ms, 0669ms total)
TB34C 274:766 JLINK_WriteReg(MSP, 0x20001000)  returns 0x00 (0000ms, 0669ms total)
TB34C 274:766 JLINK_WriteReg(PSP, 0x20001000)  returns 0x00 (0000ms, 0669ms total)
TB34C 274:766 JLINK_WriteReg(CFBP, 0x00000000)  returns 0x00 (0000ms, 0669ms total)
TB34C 274:766 JLINK_SetBPEx(Addr = 0x20000000, Type = 0xFFFFFFF2)  returns 0x00000009 (0000ms, 0669ms total)
TB34C 274:766 JLINK_Go() (0003ms, 0672ms total)
TB34C 274:769 JLINK_IsHalted()  returns FALSE (0000ms, 0672ms total)
TB34C 274:773 JLINK_IsHalted() -- CPU_ReadMem(2 bytes @ 0x20000000)  returns TRUE (0004ms, 0676ms total)
TB34C 274:777 JLINK_ReadReg(R15)  returns 0x20000000 (0000ms, 0672ms total)
TB34C 274:777 JLINK_ClrBPEx(BPHandle = 0x00000009)  returns 0x00 (0000ms, 0672ms total)
TB34C 274:777 JLINK_ReadReg(R0)  returns 0x00000000 (0000ms, 0672ms total)
TB34C 274:778 JLINK_WriteMem(0x20000180, 0x0280 Bytes, ...) -- Data:  00 EB C3 50 10 44 00 29 A4 BF 10 BC 70 47 40 1C ... -- CPU_WriteMem(640 bytes @ 0x20000180)  returns 0x280 (0009ms, 0681ms total)
TB34C 274:787 JLINK_WriteMem(0x20000400, 0x0180 Bytes, ...) -- Data:  22 F0 40 52 8A 60 01 68 8A 68 22 F0 02 02 8A 60 ... -- CPU_WriteMem(384 bytes @ 0x20000400)  returns 0x180 (0005ms, 0686ms total)
TB34C 274:792 JLINK_WriteReg(R0, 0x08000800)  returns 0x00 (0000ms, 0686ms total)
TB34C 274:792 JLINK_WriteReg(R1, 0x00000400)  returns 0x00 (0000ms, 0686ms total)
TB34C 274:792 JLINK_WriteReg(R2, 0x20000180)  returns 0x00 (0000ms, 0686ms total)
TB34C 274:792 JLINK_WriteReg(R3, 0x00000000)  returns 0x00 (0000ms, 0686ms total)
TB34C 274:792 JLINK_WriteReg(R4, 0x00000000)  returns 0x00 (0000ms, 0686ms total)
TB34C 274:792 JLINK_WriteReg(R5, 0x00000000)  returns 0x00 (0000ms, 0686ms total)
TB34C 274:792 JLINK_WriteReg(R6, 0x00000000)  returns 0x00 (0000ms, 0686ms total)
TB34C 274:792 JLINK_WriteReg(R7, 0x00000000)  returns 0x00 (0000ms, 0686ms total)
TB34C 274:792 JLINK_WriteReg(R8, 0x00000000)  returns 0x00 (0000ms, 0686ms total)
TB34C 274:792 JLINK_WriteReg(R9, 0x2000017C)  returns 0x00 (0000ms, 0686ms total)
TB34C 274:792 JLINK_WriteReg(R10, 0x00000000)  returns 0x00 (0000ms, 0686ms total)
TB34C 274:792 JLINK_WriteReg(R11, 0x00000000)  returns 0x00 (0000ms, 0686ms total)
TB34C 274:792 JLINK_WriteReg(R12, 0x00000000)  returns 0x00 (0000ms, 0686ms total)
TB34C 274:792 JLINK_WriteReg(R13, 0x20001000)  returns 0x00 (0000ms, 0686ms total)
TB34C 274:792 JLINK_WriteReg(R14, 0x20000001)  returns 0x00 (0000ms, 0686ms total)
TB34C 274:792 JLINK_WriteReg(R15, 0x20000108)  returns 0x00 (0000ms, 0686ms total)
TB34C 274:792 JLINK_WriteReg(XPSR, 0x01000000)  returns 0x00 (0000ms, 0686ms total)
TB34C 274:792 JLINK_WriteReg(MSP, 0x20001000)  returns 0x00 (0000ms, 0686ms total)
TB34C 274:792 JLINK_WriteReg(PSP, 0x20001000)  returns 0x00 (0000ms, 0686ms total)
TB34C 274:792 JLINK_WriteReg(CFBP, 0x00000000)  returns 0x00 (0000ms, 0686ms total)
TB34C 274:792 JLINK_SetBPEx(Addr = 0x20000000, Type = 0xFFFFFFF2)  returns 0x0000000A (0000ms, 0686ms total)
TB34C 274:792 JLINK_Go() (0003ms, 0689ms total)
TB34C 274:795 JLINK_IsHalted()  returns FALSE (0001ms, 0690ms total)
TB34C 274:799 JLINK_IsHalted()  returns FALSE (0000ms, 0689ms total)
TB34C 274:807 JLINK_IsHalted() -- CPU_ReadMem(2 bytes @ 0x20000000)  returns TRUE (0004ms, 0693ms total)
TB34C 274:811 JLINK_ReadReg(R15)  returns 0x20000000 (0000ms, 0689ms total)
TB34C 274:811 JLINK_ClrBPEx(BPHandle = 0x0000000A)  returns 0x00 (0000ms, 0689ms total)
TB34C 274:811 JLINK_ReadReg(R0)  returns 0x00000000 (0000ms, 0689ms total)
TB34C 274:812 JLINK_WriteMem(0x20000180, 0x0280 Bytes, ...) -- Data:  00 20 88 60 C8 60 01 21 14 4A CD E9 05 01 07 90 ... -- CPU_WriteMem(640 bytes @ 0x20000180)  returns 0x280 (0009ms, 0698ms total)
TB34C 274:821 JLINK_WriteMem(0x20000400, 0x0180 Bytes, ...) -- Data:  06 41 E4 18 69 41 D7 E9 02 53 2C 1B 8B 41 01 DB ... -- CPU_WriteMem(384 bytes @ 0x20000400)  returns 0x180 (0006ms, 0704ms total)
TB34C 274:827 JLINK_WriteReg(R0, 0x08000C00)  returns 0x00 (0000ms, 0704ms total)
TB34C 274:827 JLINK_WriteReg(R1, 0x00000400)  returns 0x00 (0000ms, 0704ms total)
TB34C 274:827 JLINK_WriteReg(R2, 0x20000180)  returns 0x00 (0000ms, 0704ms total)
TB34C 274:827 JLINK_WriteReg(R3, 0x00000000)  returns 0x00 (0000ms, 0704ms total)
TB34C 274:827 JLINK_WriteReg(R4, 0x00000000)  returns 0x00 (0000ms, 0704ms total)
TB34C 274:827 JLINK_WriteReg(R5, 0x00000000)  returns 0x00 (0000ms, 0704ms total)
TB34C 274:827 JLINK_WriteReg(R6, 0x00000000)  returns 0x00 (0000ms, 0704ms total)
TB34C 274:827 JLINK_WriteReg(R7, 0x00000000)  returns 0x00 (0000ms, 0704ms total)
TB34C 274:827 JLINK_WriteReg(R8, 0x00000000)  returns 0x00 (0000ms, 0704ms total)
TB34C 274:827 JLINK_WriteReg(R9, 0x2000017C)  returns 0x00 (0000ms, 0704ms total)
TB34C 274:827 JLINK_WriteReg(R10, 0x00000000)  returns 0x00 (0000ms, 0704ms total)
TB34C 274:827 JLINK_WriteReg(R11, 0x00000000)  returns 0x00 (0000ms, 0704ms total)
TB34C 274:827 JLINK_WriteReg(R12, 0x00000000)  returns 0x00 (0000ms, 0704ms total)
TB34C 274:827 JLINK_WriteReg(R13, 0x20001000)  returns 0x00 (0000ms, 0704ms total)
TB34C 274:827 JLINK_WriteReg(R14, 0x20000001)  returns 0x00 (0000ms, 0704ms total)
TB34C 274:827 JLINK_WriteReg(R15, 0x20000108)  returns 0x00 (0000ms, 0704ms total)
TB34C 274:827 JLINK_WriteReg(XPSR, 0x01000000)  returns 0x00 (0000ms, 0704ms total)
TB34C 274:827 JLINK_WriteReg(MSP, 0x20001000)  returns 0x00 (0000ms, 0704ms total)
TB34C 274:827 JLINK_WriteReg(PSP, 0x20001000)  returns 0x00 (0000ms, 0704ms total)
TB34C 274:827 JLINK_WriteReg(CFBP, 0x00000000)  returns 0x00 (0000ms, 0704ms total)
TB34C 274:827 JLINK_SetBPEx(Addr = 0x20000000, Type = 0xFFFFFFF2)  returns 0x0000000B (0000ms, 0704ms total)
TB34C 274:827 JLINK_Go() (0004ms, 0708ms total)
TB34C 274:831 JLINK_IsHalted()  returns FALSE (0000ms, 0708ms total)
TB34C 274:836 JLINK_IsHalted() -- CPU_ReadMem(2 bytes @ 0x20000000)  returns TRUE (0006ms, 0714ms total)
TB34C 274:842 JLINK_ReadReg(R15)  returns 0x20000000 (0000ms, 0708ms total)
TB34C 274:842 JLINK_ClrBPEx(BPHandle = 0x0000000B)  returns 0x00 (0000ms, 0708ms total)
TB34C 274:842 JLINK_ReadReg(R0)  returns 0x00000000 (0000ms, 0708ms total)
TB34C 274:842 JLINK_WriteMem(0x20000180, 0x0280 Bytes, ...) -- Data:  1B 0A 97 ED 00 0A 28 46 FF F7 84 FE D7 ED 04 0A ... -- CPU_WriteMem(640 bytes @ 0x20000180)  returns 0x280 (0013ms, 0721ms total)
TB34C 274:855 JLINK_WriteMem(0x20000400, 0x0180 Bytes, ...) -- Data:  02 A9 01 A8 FF F7 7A FF 9D F8 04 00 A0 70 9D F8 ... -- CPU_WriteMem(384 bytes @ 0x20000400)  returns 0x180 (0006ms, 0727ms total)
TB34C 274:861 JLINK_WriteReg(R0, 0x08001000)  returns 0x00 (0000ms, 0727ms total)
TB34C 274:861 JLINK_WriteReg(R1, 0x00000400)  returns 0x00 (0000ms, 0727ms total)
TB34C 274:861 JLINK_WriteReg(R2, 0x20000180)  returns 0x00 (0000ms, 0727ms total)
TB34C 274:861 JLINK_WriteReg(R3, 0x00000000)  returns 0x00 (0000ms, 0727ms total)
TB34C 274:861 JLINK_WriteReg(R4, 0x00000000)  returns 0x00 (0000ms, 0727ms total)
TB34C 274:861 JLINK_WriteReg(R5, 0x00000000)  returns 0x00 (0000ms, 0727ms total)
TB34C 274:861 JLINK_WriteReg(R6, 0x00000000)  returns 0x00 (0000ms, 0727ms total)
TB34C 274:861 JLINK_WriteReg(R7, 0x00000000)  returns 0x00 (0000ms, 0727ms total)
TB34C 274:861 JLINK_WriteReg(R8, 0x00000000)  returns 0x00 (0000ms, 0727ms total)
TB34C 274:861 JLINK_WriteReg(R9, 0x2000017C)  returns 0x00 (0000ms, 0727ms total)
TB34C 274:861 JLINK_WriteReg(R10, 0x00000000)  returns 0x00 (0000ms, 0727ms total)
TB34C 274:861 JLINK_WriteReg(R11, 0x00000000)  returns 0x00 (0000ms, 0727ms total)
TB34C 274:861 JLINK_WriteReg(R12, 0x00000000)  returns 0x00 (0000ms, 0727ms total)
TB34C 274:861 JLINK_WriteReg(R13, 0x20001000)  returns 0x00 (0000ms, 0727ms total)
TB34C 274:861 JLINK_WriteReg(R14, 0x20000001)  returns 0x00 (0000ms, 0727ms total)
TB34C 274:861 JLINK_WriteReg(R15, 0x20000108)  returns 0x00 (0000ms, 0727ms total)
TB34C 274:861 JLINK_WriteReg(XPSR, 0x01000000)  returns 0x00 (0000ms, 0727ms total)
TB34C 274:861 JLINK_WriteReg(MSP, 0x20001000)  returns 0x00 (0000ms, 0727ms total)
TB34C 274:861 JLINK_WriteReg(PSP, 0x20001000)  returns 0x00 (0000ms, 0727ms total)
TB34C 274:861 JLINK_WriteReg(CFBP, 0x00000000)  returns 0x00 (0000ms, 0727ms total)
TB34C 274:861 JLINK_SetBPEx(Addr = 0x20000000, Type = 0xFFFFFFF2)  returns 0x0000000C (0000ms, 0727ms total)
TB34C 274:861 JLINK_Go() (0002ms, 0729ms total)
TB34C 274:863 JLINK_IsHalted()  returns FALSE (0001ms, 0730ms total)
TB34C 274:869 JLINK_IsHalted() -- CPU_ReadMem(2 bytes @ 0x20000000)  returns TRUE (0005ms, 0734ms total)
TB34C 274:874 JLINK_ReadReg(R15)  returns 0x20000000 (0000ms, 0729ms total)
TB34C 274:874 JLINK_ClrBPEx(BPHandle = 0x0000000C)  returns 0x00 (0000ms, 0729ms total)
TB34C 274:874 JLINK_ReadReg(R0)  returns 0x00000000 (0000ms, 0729ms total)
TB34C 274:875 JLINK_WriteMem(0x20000180, 0x0280 Bytes, ...) -- Data:  00 61 01 60 01 68 21 F4 00 61 01 60 01 68 41 F4 ... -- CPU_WriteMem(640 bytes @ 0x20000180)  returns 0x280 (0009ms, 0738ms total)
TB34C 274:884 JLINK_WriteMem(0x20000400, 0x0180 Bytes, ...) -- Data:  42 07 00 BF 05 EB 47 00 01 A9 56 F8 20 20 68 46 ... -- CPU_WriteMem(384 bytes @ 0x20000400)  returns 0x180 (0008ms, 0746ms total)
TB34C 274:892 JLINK_WriteReg(R0, 0x08001400)  returns 0x00 (0000ms, 0746ms total)
TB34C 274:892 JLINK_WriteReg(R1, 0x00000400)  returns 0x00 (0000ms, 0746ms total)
TB34C 274:892 JLINK_WriteReg(R2, 0x20000180)  returns 0x00 (0000ms, 0746ms total)
TB34C 274:892 JLINK_WriteReg(R3, 0x00000000)  returns 0x00 (0000ms, 0746ms total)
TB34C 274:892 JLINK_WriteReg(R4, 0x00000000)  returns 0x00 (0000ms, 0746ms total)
TB34C 274:892 JLINK_WriteReg(R5, 0x00000000)  returns 0x00 (0000ms, 0746ms total)
TB34C 274:892 JLINK_WriteReg(R6, 0x00000000)  returns 0x00 (0000ms, 0746ms total)
TB34C 274:892 JLINK_WriteReg(R7, 0x00000000)  returns 0x00 (0000ms, 0746ms total)
TB34C 274:892 JLINK_WriteReg(R8, 0x00000000)  returns 0x00 (0000ms, 0746ms total)
TB34C 274:892 JLINK_WriteReg(R9, 0x2000017C)  returns 0x00 (0000ms, 0746ms total)
TB34C 274:892 JLINK_WriteReg(R10, 0x00000000)  returns 0x00 (0000ms, 0746ms total)
TB34C 274:892 JLINK_WriteReg(R11, 0x00000000)  returns 0x00 (0000ms, 0746ms total)
TB34C 274:892 JLINK_WriteReg(R12, 0x00000000)  returns 0x00 (0000ms, 0746ms total)
TB34C 274:892 JLINK_WriteReg(R13, 0x20001000)  returns 0x00 (0000ms, 0746ms total)
TB34C 274:892 JLINK_WriteReg(R14, 0x20000001)  returns 0x00 (0000ms, 0746ms total)
TB34C 274:892 JLINK_WriteReg(R15, 0x20000108)  returns 0x00 (0000ms, 0746ms total)
TB34C 274:892 JLINK_WriteReg(XPSR, 0x01000000)  returns 0x00 (0000ms, 0746ms total)
TB34C 274:892 JLINK_WriteReg(MSP, 0x20001000)  returns 0x00 (0000ms, 0746ms total)
TB34C 274:892 JLINK_WriteReg(PSP, 0x20001000)  returns 0x00 (0000ms, 0746ms total)
TB34C 274:892 JLINK_WriteReg(CFBP, 0x00000000)  returns 0x00 (0000ms, 0746ms total)
TB34C 274:892 JLINK_SetBPEx(Addr = 0x20000000, Type = 0xFFFFFFF2)  returns 0x0000000D (0000ms, 0746ms total)
TB34C 274:893 JLINK_Go() (0002ms, 0748ms total)
TB34C 274:895 JLINK_IsHalted()  returns FALSE (0000ms, 0748ms total)
TB34C 274:897 JLINK_IsHalted()  returns FALSE (0000ms, 0748ms total)
TB34C 274:899 JLINK_IsHalted() -- CPU_ReadMem(2 bytes @ 0x20000000)  returns TRUE (0005ms, 0753ms total)
TB34C 274:904 JLINK_ReadReg(R15)  returns 0x20000000 (0000ms, 0748ms total)
TB34C 274:904 JLINK_ClrBPEx(BPHandle = 0x0000000D)  returns 0x00 (0000ms, 0748ms total)
TB34C 274:904 JLINK_ReadReg(R0)  returns 0x00000000 (0000ms, 0748ms total)
TB34C 274:904 JLINK_WriteMem(0x20000180, 0x0280 Bytes, ...) -- Data:  08 AF 6D 46 07 90 02 21 08 A8 FF F7 B5 F9 10 B1 ... -- CPU_WriteMem(640 bytes @ 0x20000180)  returns 0x280 (0009ms, 0757ms total)
TB34C 274:913 JLINK_WriteMem(0x20000400, 0x0180 Bytes, ...) -- Data:  F4 FB 1E 4A 24 68 1C 4D 00 23 1C 48 14 3A 03 21 ... -- CPU_WriteMem(384 bytes @ 0x20000400)  returns 0x180 (0006ms, 0763ms total)
TB34C 274:919 JLINK_WriteReg(R0, 0x08001800)  returns 0x00 (0000ms, 0763ms total)
TB34C 274:919 JLINK_WriteReg(R1, 0x00000400)  returns 0x00 (0000ms, 0763ms total)
TB34C 274:919 JLINK_WriteReg(R2, 0x20000180)  returns 0x00 (0000ms, 0763ms total)
TB34C 274:919 JLINK_WriteReg(R3, 0x00000000)  returns 0x00 (0000ms, 0763ms total)
TB34C 274:919 JLINK_WriteReg(R4, 0x00000000)  returns 0x00 (0000ms, 0763ms total)
TB34C 274:919 JLINK_WriteReg(R5, 0x00000000)  returns 0x00 (0000ms, 0763ms total)
TB34C 274:919 JLINK_WriteReg(R6, 0x00000000)  returns 0x00 (0000ms, 0763ms total)
TB34C 274:919 JLINK_WriteReg(R7, 0x00000000)  returns 0x00 (0000ms, 0763ms total)
TB34C 274:919 JLINK_WriteReg(R8, 0x00000000)  returns 0x00 (0000ms, 0763ms total)
TB34C 274:919 JLINK_WriteReg(R9, 0x2000017C)  returns 0x00 (0000ms, 0763ms total)
TB34C 274:919 JLINK_WriteReg(R10, 0x00000000)  returns 0x00 (0000ms, 0763ms total)
TB34C 274:919 JLINK_WriteReg(R11, 0x00000000)  returns 0x00 (0000ms, 0763ms total)
TB34C 274:919 JLINK_WriteReg(R12, 0x00000000)  returns 0x00 (0000ms, 0763ms total)
TB34C 274:919 JLINK_WriteReg(R13, 0x20001000)  returns 0x00 (0000ms, 0763ms total)
TB34C 274:919 JLINK_WriteReg(R14, 0x20000001)  returns 0x00 (0000ms, 0763ms total)
TB34C 274:919 JLINK_WriteReg(R15, 0x20000108)  returns 0x00 (0000ms, 0763ms total)
TB34C 274:919 JLINK_WriteReg(XPSR, 0x01000000)  returns 0x00 (0000ms, 0763ms total)
TB34C 274:919 JLINK_WriteReg(MSP, 0x20001000)  returns 0x00 (0000ms, 0763ms total)
TB34C 274:919 JLINK_WriteReg(PSP, 0x20001000)  returns 0x00 (0000ms, 0763ms total)
TB34C 274:919 JLINK_WriteReg(CFBP, 0x00000000)  returns 0x00 (0000ms, 0763ms total)
TB34C 274:919 JLINK_SetBPEx(Addr = 0x20000000, Type = 0xFFFFFFF2)  returns 0x0000000E (0000ms, 0763ms total)
TB34C 274:919 JLINK_Go() (0002ms, 0765ms total)
